!Keysight Technologies,E5080B,MY59201595,A.15.40.08
!Date: Tuesday, March 01, 2022 11:37:54
!Correction: S11(Off) 
!S21(Off) 
!S12(Off) 
!S22(Off) 
!S2P File: Measurements: S11, S21, S12, S22:
# Hz S  MA   R 50
6323000000 0.95757699 -141.42964 1e-010 45 1e-010 45 1e-010 45
6323012500 0.95759046 -141.43297 1e-010 45 1e-010 45 1e-010 45
6323025000 0.95754331 -141.43486 1e-010 45 1e-010 45 1e-010 45
6323037500 0.9575913 -141.43765 1e-010 45 1e-010 45 1e-010 45
6323050000 0.95756757 -141.44113 1e-010 45 1e-010 45 1e-010 45
6323062500 0.95753968 -141.44623 1e-010 45 1e-010 45 1e-010 45
6323075000 0.95756048 -141.44832 1e-010 45 1e-010 45 1e-010 45
6323087500 0.95756507 -141.45139 1e-010 45 1e-010 45 1e-010 45
6323100000 0.9575839 -141.455 1e-010 45 1e-010 45 1e-010 45
6323112500 0.95758784 -141.4577 1e-010 45 1e-010 45 1e-010 45
6323125000 0.95758635 -141.46045 1e-010 45 1e-010 45 1e-010 45
6323137500 0.95760065 -141.46338 1e-010 45 1e-010 45 1e-010 45
6323150000 0.9575997 -141.46732 1e-010 45 1e-010 45 1e-010 45
6323162500 0.95758605 -141.46976 1e-010 45 1e-010 45 1e-010 45
6323175000 0.95754039 -141.47307 1e-010 45 1e-010 45 1e-010 45
6323187500 0.957537 -141.47542 1e-010 45 1e-010 45 1e-010 45
6323200000 0.95755333 -141.47833 1e-010 45 1e-010 45 1e-010 45
6323212500 0.95755446 -141.48238 1e-010 45 1e-010 45 1e-010 45
6323225000 0.95751262 -141.48573 1e-010 45 1e-010 45 1e-010 45
6323237500 0.95753986 -141.48853 1e-010 45 1e-010 45 1e-010 45
6323250000 0.95752406 -141.49117 1e-010 45 1e-010 45 1e-010 45
6323262500 0.9575032 -141.49355 1e-010 45 1e-010 45 1e-010 45
6323275000 0.95754272 -141.49828 1e-010 45 1e-010 45 1e-010 45
6323287500 0.9575808 -141.50085 1e-010 45 1e-010 45 1e-010 45
6323300000 0.95755959 -141.50339 1e-010 45 1e-010 45 1e-010 45
6323312500 0.95751363 -141.5078 1e-010 45 1e-010 45 1e-010 45
6323325000 0.95749998 -141.5103 1e-010 45 1e-010 45 1e-010 45
6323337500 0.95751315 -141.513 1e-010 45 1e-010 45 1e-010 45
6323350000 0.95747852 -141.51657 1e-010 45 1e-010 45 1e-010 45
6323362500 0.95750445 -141.51965 1e-010 45 1e-010 45 1e-010 45
6323375000 0.95748341 -141.52295 1e-010 45 1e-010 45 1e-010 45
6323387500 0.9575007 -141.52574 1e-010 45 1e-010 45 1e-010 45
6323400000 0.95747203 -141.52901 1e-010 45 1e-010 45 1e-010 45
6323412500 0.95746118 -141.53281 1e-010 45 1e-010 45 1e-010 45
6323425000 0.95748842 -141.53537 1e-010 45 1e-010 45 1e-010 45
6323437500 0.95747656 -141.53966 1e-010 45 1e-010 45 1e-010 45
6323450000 0.95746392 -141.5417 1e-010 45 1e-010 45 1e-010 45
6323462500 0.95746481 -141.54605 1e-010 45 1e-010 45 1e-010 45
6323475000 0.9574632 -141.54984 1e-010 45 1e-010 45 1e-010 45
6323487500 0.95744568 -141.55067 1e-010 45 1e-010 45 1e-010 45
6323500000 0.95745969 -141.55421 1e-010 45 1e-010 45 1e-010 45
6323512500 0.95741713 -141.55751 1e-010 45 1e-010 45 1e-010 45
6323525000 0.95741177 -141.56075 1e-010 45 1e-010 45 1e-010 45
6323537500 0.95742321 -141.56412 1e-010 45 1e-010 45 1e-010 45
6323550000 0.95742828 -141.56758 1e-010 45 1e-010 45 1e-010 45
6323562500 0.95744038 -141.57086 1e-010 45 1e-010 45 1e-010 45
6323575000 0.95743281 -141.57486 1e-010 45 1e-010 45 1e-010 45
6323587500 0.95741761 -141.57616 1e-010 45 1e-010 45 1e-010 45
6323600000 0.95742023 -141.58105 1e-010 45 1e-010 45 1e-010 45
6323612500 0.95745414 -141.58284 1e-010 45 1e-010 45 1e-010 45
6323625000 0.95744163 -141.58749 1e-010 45 1e-010 45 1e-010 45
6323637500 0.957434 -141.59024 1e-010 45 1e-010 45 1e-010 45
6323650000 0.95741981 -141.59297 1e-010 45 1e-010 45 1e-010 45
6323662500 0.9574095 -141.5974 1e-010 45 1e-010 45 1e-010 45
6323675000 0.95741153 -141.5983 1e-010 45 1e-010 45 1e-010 45
6323687500 0.95742333 -141.60323 1e-010 45 1e-010 45 1e-010 45
6323700000 0.95738912 -141.60744 1e-010 45 1e-010 45 1e-010 45
6323712500 0.95740616 -141.61015 1e-010 45 1e-010 45 1e-010 45
6323725000 0.9573943 -141.61279 1e-010 45 1e-010 45 1e-010 45
6323737500 0.95740545 -141.6154 1e-010 45 1e-010 45 1e-010 45
6323750000 0.957394 -141.61963 1e-010 45 1e-010 45 1e-010 45
6323762500 0.95740074 -141.6226 1e-010 45 1e-010 45 1e-010 45
6323775000 0.95736927 -141.62534 1e-010 45 1e-010 45 1e-010 45
6323787500 0.95731956 -141.63017 1e-010 45 1e-010 45 1e-010 45
6323800000 0.95735615 -141.63184 1e-010 45 1e-010 45 1e-010 45
6323812500 0.95735872 -141.63432 1e-010 45 1e-010 45 1e-010 45
6323825000 0.95734769 -141.63828 1e-010 45 1e-010 45 1e-010 45
6323837500 0.95732749 -141.64095 1e-010 45 1e-010 45 1e-010 45
6323850000 0.95732927 -141.6429 1e-010 45 1e-010 45 1e-010 45
6323862500 0.95730805 -141.6478 1e-010 45 1e-010 45 1e-010 45
6323875000 0.95728403 -141.64931 1e-010 45 1e-010 45 1e-010 45
6323887500 0.95729858 -141.65382 1e-010 45 1e-010 45 1e-010 45
6323900000 0.95731425 -141.65752 1e-010 45 1e-010 45 1e-010 45
6323912500 0.95728737 -141.66136 1e-010 45 1e-010 45 1e-010 45
6323925000 0.95729548 -141.66495 1e-010 45 1e-010 45 1e-010 45
6323937500 0.95728403 -141.6667 1e-010 45 1e-010 45 1e-010 45
6323950000 0.95725393 -141.67096 1e-010 45 1e-010 45 1e-010 45
6323962500 0.95727879 -141.67384 1e-010 45 1e-010 45 1e-010 45
6323975000 0.95727599 -141.67743 1e-010 45 1e-010 45 1e-010 45
6323987500 0.9572559 -141.67961 1e-010 45 1e-010 45 1e-010 45
6324000000 0.95724118 -141.68314 1e-010 45 1e-010 45 1e-010 45
6324012500 0.95725304 -141.6877 1e-010 45 1e-010 45 1e-010 45
6324025000 0.95726061 -141.69087 1e-010 45 1e-010 45 1e-010 45
6324037500 0.95724827 -141.69281 1e-010 45 1e-010 45 1e-010 45
6324050000 0.95726585 -141.69565 1e-010 45 1e-010 45 1e-010 45
6324062500 0.95726281 -141.69939 1e-010 45 1e-010 45 1e-010 45
6324075000 0.95725149 -141.70317 1e-010 45 1e-010 45 1e-010 45
6324087500 0.95722383 -141.70578 1e-010 45 1e-010 45 1e-010 45
6324100000 0.95724601 -141.70915 1e-010 45 1e-010 45 1e-010 45
6324112500 0.95723319 -141.71298 1e-010 45 1e-010 45 1e-010 45
6324125000 0.95720619 -141.71634 1e-010 45 1e-010 45 1e-010 45
6324137500 0.95721805 -141.71999 1e-010 45 1e-010 45 1e-010 45
6324150000 0.95720333 -141.72314 1e-010 45 1e-010 45 1e-010 45
6324162500 0.95718521 -141.72615 1e-010 45 1e-010 45 1e-010 45
6324175000 0.95717549 -141.73012 1e-010 45 1e-010 45 1e-010 45
6324187500 0.95715231 -141.73215 1e-010 45 1e-010 45 1e-010 45
6324200000 0.95715761 -141.73596 1e-010 45 1e-010 45 1e-010 45
6324212500 0.95716739 -141.73888 1e-010 45 1e-010 45 1e-010 45
6324225000 0.95719707 -141.74219 1e-010 45 1e-010 45 1e-010 45
6324237500 0.95716798 -141.74542 1e-010 45 1e-010 45 1e-010 45
6324250000 0.95714682 -141.74924 1e-010 45 1e-010 45 1e-010 45
6324262500 0.95714831 -141.75174 1e-010 45 1e-010 45 1e-010 45
6324275000 0.95715714 -141.75696 1e-010 45 1e-010 45 1e-010 45
6324287500 0.95715547 -141.75931 1e-010 45 1e-010 45 1e-010 45
6324300000 0.95713943 -141.76158 1e-010 45 1e-010 45 1e-010 45
6324312500 0.95715255 -141.76588 1e-010 45 1e-010 45 1e-010 45
6324325000 0.95713955 -141.76953 1e-010 45 1e-010 45 1e-010 45
6324337500 0.95714575 -141.77199 1e-010 45 1e-010 45 1e-010 45
6324350000 0.95715004 -141.77507 1e-010 45 1e-010 45 1e-010 45
6324362500 0.95712775 -141.78009 1e-010 45 1e-010 45 1e-010 45
6324375000 0.95710981 -141.78236 1e-010 45 1e-010 45 1e-010 45
6324387500 0.95711553 -141.78624 1e-010 45 1e-010 45 1e-010 45
6324400000 0.95714903 -141.78995 1e-010 45 1e-010 45 1e-010 45
6324412500 0.95710623 -141.79202 1e-010 45 1e-010 45 1e-010 45
6324425000 0.95709932 -141.79512 1e-010 45 1e-010 45 1e-010 45
6324437500 0.95708776 -141.79929 1e-010 45 1e-010 45 1e-010 45
6324450000 0.95708251 -141.80193 1e-010 45 1e-010 45 1e-010 45
6324462500 0.95706099 -141.80501 1e-010 45 1e-010 45 1e-010 45
6324475000 0.95707434 -141.80879 1e-010 45 1e-010 45 1e-010 45
6324487500 0.95707494 -141.81218 1e-010 45 1e-010 45 1e-010 45
6324500000 0.95703602 -141.81516 1e-010 45 1e-010 45 1e-010 45
6324512500 0.95706362 -141.81909 1e-010 45 1e-010 45 1e-010 45
6324525000 0.95704675 -141.82237 1e-010 45 1e-010 45 1e-010 45
6324537500 0.9570564 -141.82652 1e-010 45 1e-010 45 1e-010 45
6324550000 0.95704609 -141.8288 1e-010 45 1e-010 45 1e-010 45
6324562500 0.95706999 -141.83203 1e-010 45 1e-010 45 1e-010 45
6324575000 0.9570533 -141.83632 1e-010 45 1e-010 45 1e-010 45
6324587500 0.95704156 -141.83847 1e-010 45 1e-010 45 1e-010 45
6324600000 0.95702976 -141.84315 1e-010 45 1e-010 45 1e-010 45
6324612500 0.95702046 -141.8466 1e-010 45 1e-010 45 1e-010 45
6324625000 0.9570244 -141.84866 1e-010 45 1e-010 45 1e-010 45
6324637500 0.95703077 -141.85197 1e-010 45 1e-010 45 1e-010 45
6324650000 0.95696527 -141.85602 1e-010 45 1e-010 45 1e-010 45
6324662500 0.95697081 -141.85887 1e-010 45 1e-010 45 1e-010 45
6324675000 0.95697725 -141.86125 1e-010 45 1e-010 45 1e-010 45
6324687500 0.95694673 -141.86626 1e-010 45 1e-010 45 1e-010 45
6324700000 0.95698768 -141.86916 1e-010 45 1e-010 45 1e-010 45
6324712500 0.95698196 -141.87306 1e-010 45 1e-010 45 1e-010 45
6324725000 0.95701492 -141.87698 1e-010 45 1e-010 45 1e-010 45
6324737500 0.95699292 -141.8799 1e-010 45 1e-010 45 1e-010 45
6324750000 0.95695657 -141.88364 1e-010 45 1e-010 45 1e-010 45
6324762500 0.95695114 -141.88638 1e-010 45 1e-010 45 1e-010 45
6324775000 0.9569819 -141.88977 1e-010 45 1e-010 45 1e-010 45
6324787500 0.95699781 -141.89375 1e-010 45 1e-010 45 1e-010 45
6324800000 0.95695603 -141.89694 1e-010 45 1e-010 45 1e-010 45
6324812500 0.95693099 -141.90073 1e-010 45 1e-010 45 1e-010 45
6324825000 0.95691442 -141.90346 1e-010 45 1e-010 45 1e-010 45
6324837500 0.95688951 -141.90674 1e-010 45 1e-010 45 1e-010 45
6324850000 0.95691276 -141.91133 1e-010 45 1e-010 45 1e-010 45
6324862500 0.95691252 -141.91371 1e-010 45 1e-010 45 1e-010 45
6324875000 0.9569127 -141.91756 1e-010 45 1e-010 45 1e-010 45
6324887500 0.95690799 -141.92081 1e-010 45 1e-010 45 1e-010 45
6324900000 0.95687741 -141.92357 1e-010 45 1e-010 45 1e-010 45
6324912500 0.95685381 -141.92888 1e-010 45 1e-010 45 1e-010 45
6324925000 0.95684826 -141.93063 1e-010 45 1e-010 45 1e-010 45
6324937500 0.95684415 -141.93329 1e-010 45 1e-010 45 1e-010 45
6324950000 0.95686519 -141.93919 1e-010 45 1e-010 45 1e-010 45
6324962500 0.95684242 -141.9404 1e-010 45 1e-010 45 1e-010 45
6324975000 0.95682073 -141.94443 1e-010 45 1e-010 45 1e-010 45
6324987500 0.95680642 -141.94872 1e-010 45 1e-010 45 1e-010 45
6325000000 0.95680851 -141.95172 1e-010 45 1e-010 45 1e-010 45
6325012500 0.95683348 -141.95633 1e-010 45 1e-010 45 1e-010 45
6325025000 0.95681119 -141.95876 1e-010 45 1e-010 45 1e-010 45
6325037500 0.95681792 -141.9621 1e-010 45 1e-010 45 1e-010 45
6325050000 0.9567948 -141.96643 1e-010 45 1e-010 45 1e-010 45
6325062500 0.95678794 -141.96815 1e-010 45 1e-010 45 1e-010 45
6325075000 0.95681894 -141.97218 1e-010 45 1e-010 45 1e-010 45
6325087500 0.956801 -141.97673 1e-010 45 1e-010 45 1e-010 45
6325100000 0.95677346 -141.98058 1e-010 45 1e-010 45 1e-010 45
6325112500 0.9567728 -141.98267 1e-010 45 1e-010 45 1e-010 45
6325125000 0.9567523 -141.98659 1e-010 45 1e-010 45 1e-010 45
6325137500 0.95675522 -141.99007 1e-010 45 1e-010 45 1e-010 45
6325150000 0.95673645 -141.99304 1e-010 45 1e-010 45 1e-010 45
6325162500 0.95674258 -141.99641 1e-010 45 1e-010 45 1e-010 45
6325175000 0.9567278 -141.99997 1e-010 45 1e-010 45 1e-010 45
6325187500 0.95670331 -142.00343 1e-010 45 1e-010 45 1e-010 45
6325200000 0.95670587 -142.00714 1e-010 45 1e-010 45 1e-010 45
6325212500 0.95670813 -142.01038 1e-010 45 1e-010 45 1e-010 45
6325225000 0.95670968 -142.01497 1e-010 45 1e-010 45 1e-010 45
6325237500 0.95668006 -142.01691 1e-010 45 1e-010 45 1e-010 45
6325250000 0.95671439 -142.02139 1e-010 45 1e-010 45 1e-010 45
6325262500 0.95669097 -142.02415 1e-010 45 1e-010 45 1e-010 45
6325275000 0.95669246 -142.02859 1e-010 45 1e-010 45 1e-010 45
6325287500 0.95669705 -142.03201 1e-010 45 1e-010 45 1e-010 45
6325300000 0.95666784 -142.03654 1e-010 45 1e-010 45 1e-010 45
6325312500 0.95668435 -142.0401 1e-010 45 1e-010 45 1e-010 45
6325325000 0.95667434 -142.04341 1e-010 45 1e-010 45 1e-010 45
6325337500 0.95665514 -142.04616 1e-010 45 1e-010 45 1e-010 45
6325350000 0.95662618 -142.0486 1e-010 45 1e-010 45 1e-010 45
6325362500 0.95663404 -142.05444 1e-010 45 1e-010 45 1e-010 45
6325375000 0.95664948 -142.05878 1e-010 45 1e-010 45 1e-010 45
6325387500 0.95662707 -142.06171 1e-010 45 1e-010 45 1e-010 45
6325400000 0.95663363 -142.06445 1e-010 45 1e-010 45 1e-010 45
6325412500 0.95660073 -142.06721 1e-010 45 1e-010 45 1e-010 45
6325425000 0.95659423 -142.07158 1e-010 45 1e-010 45 1e-010 45
6325437500 0.95661062 -142.07478 1e-010 45 1e-010 45 1e-010 45
6325450000 0.956563 -142.07887 1e-010 45 1e-010 45 1e-010 45
6325462500 0.9565894 -142.08299 1e-010 45 1e-010 45 1e-010 45
6325475000 0.95659029 -142.0867 1e-010 45 1e-010 45 1e-010 45
6325487500 0.95660716 -142.08849 1e-010 45 1e-010 45 1e-010 45
6325500000 0.95658046 -142.09291 1e-010 45 1e-010 45 1e-010 45
6325512500 0.9565829 -142.09698 1e-010 45 1e-010 45 1e-010 45
6325525000 0.95656151 -142.10031 1e-010 45 1e-010 45 1e-010 45
6325537500 0.95656604 -142.1044 1e-010 45 1e-010 45 1e-010 45
6325550000 0.9565323 -142.10651 1e-010 45 1e-010 45 1e-010 45
6325562500 0.95653433 -142.11153 1e-010 45 1e-010 45 1e-010 45
6325575000 0.956532 -142.11366 1e-010 45 1e-010 45 1e-010 45
6325587500 0.95653403 -142.11937 1e-010 45 1e-010 45 1e-010 45
6325600000 0.95655352 -142.12085 1e-010 45 1e-010 45 1e-010 45
6325612500 0.95653355 -142.12488 1e-010 45 1e-010 45 1e-010 45
6325625000 0.95650905 -142.13004 1e-010 45 1e-010 45 1e-010 45
6325637500 0.95645499 -142.13232 1e-010 45 1e-010 45 1e-010 45
6325650000 0.95646828 -142.13603 1e-010 45 1e-010 45 1e-010 45
6325662500 0.95642704 -142.14072 1e-010 45 1e-010 45 1e-010 45
6325675000 0.95644456 -142.14371 1e-010 45 1e-010 45 1e-010 45
6325687500 0.95643586 -142.14763 1e-010 45 1e-010 45 1e-010 45
6325700000 0.95641994 -142.15085 1e-010 45 1e-010 45 1e-010 45
6325712500 0.95643741 -142.1548 1e-010 45 1e-010 45 1e-010 45
6325725000 0.95641506 -142.15851 1e-010 45 1e-010 45 1e-010 45
6325737500 0.95637423 -142.16212 1e-010 45 1e-010 45 1e-010 45
6325750000 0.95639253 -142.16467 1e-010 45 1e-010 45 1e-010 45
6325762500 0.95641559 -142.16975 1e-010 45 1e-010 45 1e-010 45
6325775000 0.95639908 -142.17395 1e-010 45 1e-010 45 1e-010 45
6325787500 0.95637411 -142.1765 1e-010 45 1e-010 45 1e-010 45
6325800000 0.9563598 -142.18079 1e-010 45 1e-010 45 1e-010 45
6325812500 0.95634359 -142.18372 1e-010 45 1e-010 45 1e-010 45
6325825000 0.95634472 -142.18736 1e-010 45 1e-010 45 1e-010 45
6325837500 0.95632005 -142.19009 1e-010 45 1e-010 45 1e-010 45
6325850000 0.95634675 -142.19505 1e-010 45 1e-010 45 1e-010 45
6325862500 0.95633602 -142.19809 1e-010 45 1e-010 45 1e-010 45
6325875000 0.95630801 -142.20229 1e-010 45 1e-010 45 1e-010 45
6325887500 0.9562813 -142.20627 1e-010 45 1e-010 45 1e-010 45
6325900000 0.95629382 -142.20894 1e-010 45 1e-010 45 1e-010 45
6325912500 0.95626193 -142.21298 1e-010 45 1e-010 45 1e-010 45
6325925000 0.95625311 -142.21629 1e-010 45 1e-010 45 1e-010 45
6325937500 0.95626986 -142.22107 1e-010 45 1e-010 45 1e-010 45
6325950000 0.956267 -142.22552 1e-010 45 1e-010 45 1e-010 45
6325962500 0.95627487 -142.22771 1e-010 45 1e-010 45 1e-010 45
6325975000 0.95623988 -142.23189 1e-010 45 1e-010 45 1e-010 45
6325987500 0.95621258 -142.23537 1e-010 45 1e-010 45 1e-010 45
6326000000 0.95623136 -142.23886 1e-010 45 1e-010 45 1e-010 45
6326012500 0.95619351 -142.2429 1e-010 45 1e-010 45 1e-010 45
6326025000 0.95619714 -142.24654 1e-010 45 1e-010 45 1e-010 45
6326037500 0.95618719 -142.25027 1e-010 45 1e-010 45 1e-010 45
6326050000 0.95618236 -142.25484 1e-010 45 1e-010 45 1e-010 45
6326062500 0.95618254 -142.25793 1e-010 45 1e-010 45 1e-010 45
6326075000 0.95618963 -142.26286 1e-010 45 1e-010 45 1e-010 45
6326087500 0.95614278 -142.26668 1e-010 45 1e-010 45 1e-010 45
6326100000 0.95614725 -142.26996 1e-010 45 1e-010 45 1e-010 45
6326112500 0.95615023 -142.27342 1e-010 45 1e-010 45 1e-010 45
6326125000 0.95614189 -142.2773 1e-010 45 1e-010 45 1e-010 45
6326137500 0.95609921 -142.27963 1e-010 45 1e-010 45 1e-010 45
6326150000 0.95613503 -142.2843 1e-010 45 1e-010 45 1e-010 45
6326162500 0.9560917 -142.28822 1e-010 45 1e-010 45 1e-010 45
6326175000 0.9560985 -142.29294 1e-010 45 1e-010 45 1e-010 45
6326187500 0.9560734 -142.2962 1e-010 45 1e-010 45 1e-010 45
6326200000 0.95602679 -142.30045 1e-010 45 1e-010 45 1e-010 45
6326212500 0.95606095 -142.3036 1e-010 45 1e-010 45 1e-010 45
6326225000 0.95601761 -142.30736 1e-010 45 1e-010 45 1e-010 45
6326237500 0.95600474 -142.31206 1e-010 45 1e-010 45 1e-010 45
6326250000 0.95599425 -142.31627 1e-010 45 1e-010 45 1e-010 45
6326262500 0.95600259 -142.31931 1e-010 45 1e-010 45 1e-010 45
6326275000 0.95598739 -142.32381 1e-010 45 1e-010 45 1e-010 45
6326287500 0.9559654 -142.32742 1e-010 45 1e-010 45 1e-010 45
6326300000 0.9559809 -142.33188 1e-010 45 1e-010 45 1e-010 45
6326312500 0.9559502 -142.33589 1e-010 45 1e-010 45 1e-010 45
6326325000 0.95596677 -142.34039 1e-010 45 1e-010 45 1e-010 45
6326337500 0.95595115 -142.34308 1e-010 45 1e-010 45 1e-010 45
6326350000 0.9559539 -142.3474 1e-010 45 1e-010 45 1e-010 45
6326362500 0.95592886 -142.35132 1e-010 45 1e-010 45 1e-010 45
6326375000 0.95592505 -142.35336 1e-010 45 1e-010 45 1e-010 45
6326387500 0.95591015 -142.35843 1e-010 45 1e-010 45 1e-010 45
6326400000 0.95588017 -142.36176 1e-010 45 1e-010 45 1e-010 45
6326412500 0.9558515 -142.36523 1e-010 45 1e-010 45 1e-010 45
6326425000 0.95582581 -142.3703 1e-010 45 1e-010 45 1e-010 45
6326437500 0.9558444 -142.37334 1e-010 45 1e-010 45 1e-010 45
6326450000 0.95582849 -142.3793 1e-010 45 1e-010 45 1e-010 45
6326462500 0.95580649 -142.38243 1e-010 45 1e-010 45 1e-010 45
6326475000 0.95581657 -142.38637 1e-010 45 1e-010 45 1e-010 45
6326487500 0.95579106 -142.38861 1e-010 45 1e-010 45 1e-010 45
6326500000 0.95577031 -142.39497 1e-010 45 1e-010 45 1e-010 45
6326512500 0.95576686 -142.39757 1e-010 45 1e-010 45 1e-010 45
6326525000 0.95576805 -142.40175 1e-010 45 1e-010 45 1e-010 45
6326537500 0.95574343 -142.40506 1e-010 45 1e-010 45 1e-010 45
6326550000 0.95576501 -142.41078 1e-010 45 1e-010 45 1e-010 45
6326562500 0.95572025 -142.41296 1e-010 45 1e-010 45 1e-010 45
6326575000 0.9557091 -142.41722 1e-010 45 1e-010 45 1e-010 45
6326587500 0.95570219 -142.42157 1e-010 45 1e-010 45 1e-010 45
6326600000 0.95573688 -142.42464 1e-010 45 1e-010 45 1e-010 45
6326612500 0.95572984 -142.42924 1e-010 45 1e-010 45 1e-010 45
6326625000 0.95572495 -142.43452 1e-010 45 1e-010 45 1e-010 45
6326637500 0.95569992 -142.4389 1e-010 45 1e-010 45 1e-010 45
6326650000 0.95568925 -142.4424 1e-010 45 1e-010 45 1e-010 45
6326662500 0.95567691 -142.44568 1e-010 45 1e-010 45 1e-010 45
6326675000 0.95568335 -142.44914 1e-010 45 1e-010 45 1e-010 45
6326687500 0.95566493 -142.45398 1e-010 45 1e-010 45 1e-010 45
6326700000 0.95565325 -142.45805 1e-010 45 1e-010 45 1e-010 45
6326712500 0.95564622 -142.46161 1e-010 45 1e-010 45 1e-010 45
6326725000 0.95561397 -142.46556 1e-010 45 1e-010 45 1e-010 45
6326737500 0.95559174 -142.46991 1e-010 45 1e-010 45 1e-010 45
6326750000 0.95559841 -142.47478 1e-010 45 1e-010 45 1e-010 45
6326762500 0.9555949 -142.47806 1e-010 45 1e-010 45 1e-010 45
6326775000 0.95557064 -142.4818 1e-010 45 1e-010 45 1e-010 45
6326787500 0.95556313 -142.48662 1e-010 45 1e-010 45 1e-010 45
6326800000 0.95555061 -142.48996 1e-010 45 1e-010 45 1e-010 45
6326812500 0.95554543 -142.49472 1e-010 45 1e-010 45 1e-010 45
6326825000 0.95556611 -142.49736 1e-010 45 1e-010 45 1e-010 45
6326837500 0.95551187 -142.50163 1e-010 45 1e-010 45 1e-010 45
6326850000 0.95547098 -142.50716 1e-010 45 1e-010 45 1e-010 45
6326862500 0.95547926 -142.50974 1e-010 45 1e-010 45 1e-010 45
6326875000 0.95544356 -142.51509 1e-010 45 1e-010 45 1e-010 45
6326887500 0.95539773 -142.51851 1e-010 45 1e-010 45 1e-010 45
6326900000 0.95542544 -142.52255 1e-010 45 1e-010 45 1e-010 45
6326912500 0.95539075 -142.52654 1e-010 45 1e-010 45 1e-010 45
6326925000 0.95538861 -142.53209 1e-010 45 1e-010 45 1e-010 45
