!CSV A.01.01
!Keysight Technologies,N5242B,MY57041041,A.13.60.06
!Date: Monday, April 26, 2021 17:17:03
!Source: Standard

BEGIN CH1_DATA
Freq(Hz),S34(REAL),S34(IMAG)
4405830000,-0.55804509,0.49344763
4405841000,-0.55784404,0.49366531
4405852000,-0.55760127,0.4938899
4405863000,-0.55738479,0.49413624
4405874000,-0.55714911,0.49436274
4405885000,-0.55694228,0.49461499
4405896000,-0.55672967,0.49484476
4405907000,-0.55651921,0.49509388
4405918000,-0.55629057,0.49533063
4405929000,-0.55605066,0.49555856
4405940000,-0.55583334,0.49579328
4405951000,-0.55563039,0.49601793
4405962000,-0.55538243,0.49626797
4405973000,-0.55519372,0.49651012
4405984000,-0.55496109,0.49672714
4405995000,-0.55473059,0.49698257
4406006000,-0.55450171,0.49721837
4406017000,-0.55431145,0.49743319
4406028000,-0.5540694,0.49767965
4406039000,-0.55385733,0.49794427
4406050000,-0.55362302,0.49815875
4406061000,-0.55341804,0.49839815
4406072000,-0.55319595,0.49864727
4406083000,-0.55295575,0.49884772
4406094000,-0.55276984,0.49912229
4406105000,-0.5525409,0.49934489
4406116000,-0.55232632,0.49958682
4406127000,-0.5520972,0.4997856
4406138000,-0.55187774,0.50003475
4406149000,-0.55162632,0.50027764
4406160000,-0.55140853,0.50049305
4406171000,-0.55116642,0.50072479
4406182000,-0.55096555,0.5009867
4406193000,-0.55078506,0.50122613
4406204000,-0.55052084,0.50144494
4406215000,-0.55031079,0.50168341
4406226000,-0.55006027,0.50193083
4406237000,-0.54986387,0.50215173
4406248000,-0.54966152,0.50240409
4406259000,-0.54940683,0.50263578
4406270000,-0.54919165,0.50287324
4406281000,-0.54894221,0.5030728
4406292000,-0.54873466,0.50328672
4406303000,-0.54852545,0.50354636
4406314000,-0.54828691,0.50380349
4406325000,-0.54810202,0.50404125
4406336000,-0.54785538,0.50426406
4406347000,-0.5476203,0.50452572
4406358000,-0.54739678,0.50471079
4406369000,-0.54718274,0.50495398
4406380000,-0.54695195,0.50519788
4406391000,-0.54674232,0.50543845
4406402000,-0.5465278,0.50565654
4406413000,-0.54629803,0.50587505
4406424000,-0.54605401,0.50609505
4406435000,-0.54582691,0.50635064
4406446000,-0.54559916,0.50658047
4406457000,-0.54539233,0.50682527
4406468000,-0.54514772,0.5070594
4406479000,-0.54496026,0.50727385
4406490000,-0.54471964,0.50751799
4406501000,-0.54449785,0.50773609
4406512000,-0.54426515,0.50798607
4406523000,-0.54404461,0.50822151
4406534000,-0.54379511,0.50845402
4406545000,-0.54359162,0.50865728
4406556000,-0.54335898,0.50891745
4406567000,-0.54314733,0.50913996
4406578000,-0.54293787,0.50934386
4406589000,-0.54266346,0.50959682
4406600000,-0.54244912,0.50984132
4406611000,-0.54221666,0.51005566
4406622000,-0.54200363,0.5102793
4406633000,-0.5417763,0.51052612
4406644000,-0.54156107,0.51074189
4406655000,-0.54131645,0.51098013
4406666000,-0.54111636,0.5111872
4406677000,-0.54086852,0.51143998
4406688000,-0.54064733,0.51165122
4406699000,-0.5404129,0.51190323
4406710000,-0.5401994,0.51216614
4406721000,-0.53997838,0.51235664
4406732000,-0.53972924,0.51257282
4406743000,-0.53951263,0.51282579
4406754000,-0.53930146,0.5130353
4406765000,-0.53905082,0.51326787
4406776000,-0.5388366,0.5134955
4406787000,-0.53860462,0.5137561
4406798000,-0.53838122,0.51396292
4406809000,-0.53813946,0.51417434
4406820000,-0.5379169,0.51443946
4406831000,-0.53768015,0.51466215
4406842000,-0.53747129,0.51487696
4406853000,-0.53723305,0.51511699
4406864000,-0.53702658,0.51533413
4406875000,-0.53679872,0.51555747
4406886000,-0.53657287,0.51581311
4406897000,-0.53633368,0.51600826
4406908000,-0.53608096,0.51625526
4406919000,-0.53585893,0.51647204
4406930000,-0.53561622,0.51672822
4406941000,-0.53541517,0.51692188
4406952000,-0.53517997,0.51715368
4406963000,-0.53495747,0.51735294
4406974000,-0.53473318,0.51761806
4406985000,-0.53449702,0.51784849
4406996000,-0.53425729,0.51804197
4407007000,-0.53405255,0.51829159
4407018000,-0.53381169,0.51852757
4407029000,-0.53357798,0.51874256
4407040000,-0.53334117,0.51897931
4407051000,-0.53313005,0.51922989
4407062000,-0.53289276,0.51945364
4407073000,-0.53267509,0.51965028
4407084000,-0.5324257,0.51986706
4407095000,-0.53221315,0.52008861
4407106000,-0.53198069,0.52033484
4407117000,-0.53173208,0.52055848
4407128000,-0.53151268,0.52077729
4407139000,-0.53126824,0.52100521
4407150000,-0.53102559,0.52124465
4407161000,-0.53083092,0.52145243
4407172000,-0.53059947,0.52168065
4407183000,-0.53036487,0.52190804
4407194000,-0.53011096,0.52214348
4407205000,-0.52989674,0.5223946
4407216000,-0.52966267,0.52257693
4407227000,-0.5294348,0.52280009
4407238000,-0.52920985,0.52301711
4407249000,-0.52895308,0.52326113
4407260000,-0.52874434,0.52349871
4407271000,-0.52851832,0.52367413
4407282000,-0.52826416,0.52391565
4407293000,-0.52805769,0.52416158
4407304000,-0.52780902,0.52439904
4407315000,-0.52761215,0.52462977
4407326000,-0.52735025,0.52483588
4407337000,-0.52711064,0.52504385
4407348000,-0.52689171,0.52525657
4407359000,-0.52667183,0.52551997
4407370000,-0.526416,0.52574027
4407381000,-0.52617705,0.5259577
4407392000,-0.52594513,0.52617031
4407403000,-0.52573574,0.52639121
4407414000,-0.52549732,0.52660048
4407425000,-0.52524662,0.52683568
4407436000,-0.52502429,0.5270468
4407447000,-0.52480805,0.52730083
4407458000,-0.52455932,0.52749801
4407469000,-0.52431953,0.52774203
4407480000,-0.52408946,0.52796328
4407491000,-0.52386695,0.52816814
4407502000,-0.52362585,0.52840126
4407513000,-0.52337098,0.52863181
4407524000,-0.52316481,0.52883518
4407535000,-0.52292615,0.52904159
4407546000,-0.52270192,0.52927768
4407557000,-0.52246881,0.5295068
4407568000,-0.52221763,0.52972233
4407579000,-0.52198601,0.5299629
4407590000,-0.52176207,0.53018057
4407601000,-0.52155763,0.53039896
4407612000,-0.52128088,0.53062183
4407623000,-0.52105922,0.53084147
4407634000,-0.52081138,0.53105152
4407645000,-0.52059561,0.53128183
4407656000,-0.52033806,0.53148973
4407667000,-0.52011508,0.53170729
4407678000,-0.51984304,0.53195655
4407689000,-0.51962233,0.53216904
4407700000,-0.51940858,0.53236616
4407711000,-0.51915711,0.53259015
4407722000,-0.5189333,0.53280795
4407733000,-0.51870608,0.53301376
4407744000,-0.51845515,0.53325498
4407755000,-0.51823986,0.53350127
4407766000,-0.5180108,0.53371936
4407777000,-0.51772797,0.53390902
4407788000,-0.51752573,0.53413564
4407799000,-0.51728809,0.53436679
4407810000,-0.51704729,0.53456938
4407821000,-0.51680601,0.53480166
4407832000,-0.5165745,0.53505433
4407843000,-0.51633614,0.535236
4407854000,-0.51610136,0.53547174
4407865000,-0.51591271,0.53568614
4407876000,-0.51561797,0.53590906
4407887000,-0.51538873,0.53613991
4407898000,-0.5151726,0.53637105
4407909000,-0.51492828,0.53656322
4407920000,-0.51466948,0.53677624
4407931000,-0.51443344,0.53696835
4407942000,-0.51421654,0.53720796
4407953000,-0.51398474,0.53744704
4407964000,-0.51374656,0.53765213
4407975000,-0.51352108,0.53788376
4407986000,-0.51327103,0.53807741
4407997000,-0.5130142,0.53830421
4408008000,-0.51279587,0.53852427
4408019000,-0.5125699,0.53874433
4408030000,-0.51230776,0.53894573
4408041000,-0.51209795,0.53913867
4408052000,-0.51184893,0.5394069
4408063000,-0.51161259,0.53959513
4408074000,-0.5113833,0.53982693
4408085000,-0.5111298,0.54005802
4408096000,-0.51089972,0.54024136
4408107000,-0.51066118,0.54047859
4408118000,-0.5104019,0.54070246
4408129000,-0.51019531,0.54091966
4408140000,-0.50994879,0.54113138
4408151000,-0.50970638,0.54130846
4408162000,-0.50944167,0.54157603
4408173000,-0.5092029,0.54176515
4408184000,-0.50901729,0.54198372
4408195000,-0.50873101,0.54222614
4408206000,-0.50849259,0.54243666
4408217000,-0.50825727,0.54263204
4408228000,-0.50802636,0.54285729
4408239000,-0.50777084,0.54304755
4408250000,-0.50753814,0.54329181
4408261000,-0.50730616,0.54348385
4408272000,-0.50706923,0.5437482
4408283000,-0.50683206,0.54395783
4408294000,-0.50659603,0.54415816
4408305000,-0.50634176,0.54437011
4408316000,-0.50611788,0.54455483
4408327000,-0.50585419,0.54477787
4408338000,-0.50561732,0.54501569
4408349000,-0.50538266,0.54519594
4408360000,-0.50515449,0.54544985
4408371000,-0.50490779,0.54566866
4408382000,-0.5046432,0.54586029
4408393000,-0.50438273,0.54606229
4408404000,-0.5041756,0.54631269
4408415000,-0.50396377,0.54651541
4408426000,-0.50370896,0.54672039
4408437000,-0.50346106,0.54692829
4408448000,-0.50321305,0.54714316
4408459000,-0.50296223,0.54735041
4408470000,-0.50274956,0.54756272
4408481000,-0.50250524,0.54775703
4408492000,-0.50226599,0.54799873
4408503000,-0.50203621,0.54822147
4408514000,-0.50179273,0.54843265
4408525000,-0.5015198,0.54863513
4408536000,-0.50128824,0.54885733
4408547000,-0.50109619,0.54904693
4408558000,-0.50080383,0.54927999
4408569000,-0.50056875,0.54949337
4408580000,-0.50032103,0.54968929
4408591000,-0.50009489,0.54992414
4408602000,-0.49984413,0.55012548
4408613000,-0.49961358,0.55031478
4408624000,-0.49937612,0.5505439
4408635000,-0.49910721,0.55076301
4408646000,-0.49884534,0.55098069
4408657000,-0.49863285,0.5511964
4408668000,-0.49840015,0.55140173
4408679000,-0.4981133,0.55162048
4408690000,-0.49790746,0.55180329
4408701000,-0.49763808,0.55202311
4408712000,-0.49741617,0.55223429
4408723000,-0.49716312,0.55246079
4408734000,-0.49693593,0.5526579
4408745000,-0.49668711,0.55286467
4408756000,-0.49643368,0.55307084
4408767000,-0.49618784,0.55328083
4408778000,-0.49593529,0.553487
4408789000,-0.49571696,0.55373061
4408800000,-0.49547404,0.55394977
4408811000,-0.49520713,0.5541392
4408822000,-0.4950009,0.55433512
4408833000,-0.494735,0.55454969
4408844000,-0.49450034,0.55477542
4408855000,-0.49422497,0.55499667
4408866000,-0.49399328,0.55519134
4408877000,-0.49373573,0.55539185
4408888000,-0.4935165,0.55562907
4408899000,-0.49325863,0.55583459
4408910000,-0.49303398,0.55601561
4408921000,-0.49275771,0.55621415
4408932000,-0.4925217,0.55644548
4408943000,-0.49226421,0.5566256
4408954000,-0.49205893,0.55684817
4408965000,-0.49179363,0.55707705
4408976000,-0.49154454,0.55727547
4408987000,-0.49130195,0.55747563
4408998000,-0.49105507,0.55767977
4409009000,-0.49080211,0.55791581
4409020000,-0.49058419,0.55811185
4409031000,-0.49031314,0.55829597
4409042000,-0.49009141,0.55851489
4409053000,-0.48983425,0.5587405
4409064000,-0.48958269,0.55894184
4409075000,-0.48931471,0.55914235
4409086000,-0.48910338,0.55934405
4409097000,-0.48883504,0.5595594
4409108000,-0.48859802,0.55976558
4409119000,-0.48834604,0.55998182
4409130000,-0.48811626,0.56016243
4409141000,-0.48787159,0.56036413
4409152000,-0.48763162,0.56060141
4409163000,-0.48736182,0.56080687
4409174000,-0.48712835,0.56101531
4409185000,-0.48687214,0.5612253
4409196000,-0.48661694,0.56144321
4409207000,-0.48637858,0.56164348
4409218000,-0.48611912,0.56184804
4409229000,-0.48590574,0.56204516
4409240000,-0.48564497,0.562262
4409251000,-0.48541307,0.56247151
4409262000,-0.4851459,0.56267476
4409273000,-0.48489147,0.56288016
4409284000,-0.4846366,0.56308663
4409295000,-0.48438865,0.56328285
4409306000,-0.48415786,0.56347811
4409317000,-0.48389667,0.56369495
4409328000,-0.48366088,0.56391191
4409339000,-0.48338938,0.56410009
4409350000,-0.48316845,0.56428808
4409361000,-0.48293129,0.56450367
4409372000,-0.48266777,0.56470501
4409383000,-0.482416,0.56492925
4409394000,-0.48215252,0.56510508
4409405000,-0.48190156,0.56532186
4409416000,-0.4816924,0.56552684
4409427000,-0.4814373,0.56573719
4409438000,-0.48117954,0.56594878
4409449000,-0.48093066,0.56614149
4409460000,-0.48066679,0.56633878
4409471000,-0.4804123,0.56654805
4409482000,-0.48017606,0.56671983
4409493000,-0.47992474,0.56694436
4409504000,-0.47968826,0.56715816
4409515000,-0.47944123,0.56737667
4409526000,-0.47914919,0.5675565
4409537000,-0.47891062,0.56776726
4409548000,-0.47867507,0.5679583
4409559000,-0.47841567,0.56818724
4409570000,-0.47817683,0.56838596
4409581000,-0.47792608,0.5685752
4409592000,-0.47769609,0.5687722
4409603000,-0.47745386,0.56898564
4409614000,-0.47720361,0.56918633
4409625000,-0.4769333,0.56937909
4409636000,-0.47671351,0.56957537
4409647000,-0.47643727,0.56980264
4409658000,-0.47615892,0.5699755
4409669000,-0.47592348,0.57020044
4409680000,-0.47569203,0.57038879
4409691000,-0.47541347,0.57059228
4409702000,-0.47517568,0.57077938
4409713000,-0.47494116,0.57099593
4409724000,-0.47466651,0.57118475
4409735000,-0.47441706,0.57139587
4409746000,-0.47417387,0.57161534
4409757000,-0.47393209,0.57181174
4409768000,-0.47366276,0.57200825
4409779000,-0.47342792,0.57221782
4409790000,-0.47315884,0.57244527
4409801000,-0.47291803,0.57260263
4409812000,-0.47266379,0.57279617
4409823000,-0.47243196,0.57301426
4409834000,-0.47215748,0.5732109
4409845000,-0.47190905,0.57341635
4409856000,-0.4716382,0.57359403
4409867000,-0.47139454,0.57379276
4409878000,-0.47114795,0.57400954
4409889000,-0.47086701,0.57421398
4409900000,-0.470644,0.57441419
4409911000,-0.47037488,0.57461965
4409922000,-0.47017282,0.57481015
4409933000,-0.46988028,0.57501775
4409944000,-0.4696483,0.57520598
4409955000,-0.46936283,0.57542217
4409966000,-0.46911651,0.57560748
4409977000,-0.4688732,0.57578957
4409988000,-0.46861058,0.57600904
4409999000,-0.46836153,0.5761975
4410010000,-0.46812376,0.57640159
4410021000,-0.46788159,0.57659262
4410032000,-0.4675886,0.57682151
4410043000,-0.4673478,0.57698041
4410054000,-0.46708289,0.57717359
4410065000,-0.46683615,0.57740557
4410076000,-0.46659869,0.57759422
4410087000,-0.46634555,0.57779807
4410098000,-0.46610919,0.57800668
4410109000,-0.46582046,0.5781647
4410120000,-0.46556297,0.5784114
4410131000,-0.46530366,0.57858264
4410142000,-0.46506938,0.57877791
4410153000,-0.46479315,0.57897121
4410164000,-0.4645496,0.57914954
4410175000,-0.464302,0.57933497
4410186000,-0.46407461,0.57955396
4410197000,-0.46379384,0.57976645
4410208000,-0.46354017,0.57998919
4410219000,-0.46326256,0.58014667
4410230000,-0.46302205,0.58035058
4410241000,-0.46279088,0.58054817
4410252000,-0.46251744,0.58074433
4410263000,-0.46223491,0.58090961
4410274000,-0.46200961,0.58113796
4410285000,-0.4617489,0.58131373
4410296000,-0.46151048,0.58152205
4410307000,-0.46124166,0.58169895
4410318000,-0.46098953,0.58191425
4410329000,-0.46070796,0.58209443
4410340000,-0.46048182,0.58228719
4410351000,-0.4602181,0.58250272
4410362000,-0.45997366,0.58268464
4410373000,-0.45969415,0.58287209
4410384000,-0.45944944,0.58307171
4410395000,-0.45918983,0.58325362
4410406000,-0.45893216,0.58344746
4410417000,-0.45869794,0.58369339
4410428000,-0.45843452,0.58385384
4410439000,-0.45818606,0.58404672
4410450000,-0.45790958,0.58424038
4410461000,-0.45767188,0.58443236
4410472000,-0.45741343,0.58462304
4410483000,-0.45712599,0.58483559
4410494000,-0.45687166,0.58500803
4410505000,-0.45664302,0.58522826
4410516000,-0.45636696,0.58540922
4410527000,-0.45612866,0.58559459
4410538000,-0.45585299,0.58580315
4410549000,-0.45558843,0.5859921
4410560000,-0.455338,0.58618128
4410571000,-0.45507559,0.58639324
4410582000,-0.45482689,0.58653593
4410593000,-0.45456475,0.58676606
4410604000,-0.45430365,0.58695829
4410615000,-0.45404744,0.58712018
4410626000,-0.45378119,0.58733958
4410637000,-0.45354351,0.587547
4410648000,-0.45331436,0.58770967
4410659000,-0.45303383,0.58792681
4410670000,-0.45274282,0.58813608
4410681000,-0.45250878,0.58831853
4410692000,-0.4522379,0.58847016
4410703000,-0.45199165,0.58868694
4410714000,-0.45173281,0.58886194
4410725000,-0.45146284,0.58906949
4410736000,-0.4512094,0.5892576
4410747000,-0.45093766,0.58947098
4410758000,-0.45067939,0.58962166
4410769000,-0.45039558,0.5898155
4410780000,-0.45015621,0.59002656
4410791000,-0.44991851,0.59022194
4410802000,-0.44966489,0.59039533
4410813000,-0.44938388,0.59058917
4410824000,-0.44911951,0.5907948
4410835000,-0.44887263,0.59096754
4410846000,-0.44861341,0.5911696
4410857000,-0.44837838,0.59132951
4410868000,-0.44810647,0.59153759
4410879000,-0.44784164,0.59171695
4410890000,-0.44757819,0.59190947
4410901000,-0.44730657,0.59211504
4410912000,-0.44704145,0.59228098
4410923000,-0.44679394,0.59251034
4410934000,-0.44654804,0.59265226
4410945000,-0.44629604,0.59287024
4410956000,-0.44601926,0.59304273
4410967000,-0.44577441,0.59323847
4410978000,-0.44547838,0.59345198
4410989000,-0.44521952,0.5936079
4411000000,-0.44496146,0.59384698
4411011000,-0.44472504,0.59399194
4411022000,-0.44441047,0.59419554
4411033000,-0.44419751,0.59440005
4411044000,-0.44391379,0.59456521
4411055000,-0.44367203,0.59475785
4411066000,-0.44337472,0.59495729
4411077000,-0.44315177,0.59512341
4411088000,-0.44288516,0.59532112
4411099000,-0.4426387,0.59552848
4411110000,-0.44236407,0.59569901
4411121000,-0.442103,0.59587991
4411132000,-0.44185263,0.59608948
4411143000,-0.44157743,0.59623384
4411154000,-0.44130826,0.59647572
4411165000,-0.44104058,0.59662098
4411176000,-0.44079274,0.59679687
4411187000,-0.44053632,0.59700525
4411198000,-0.44027862,0.59720689
4411209000,-0.44001275,0.59741437
4411220000,-0.43974599,0.5975675
4411231000,-0.43944544,0.59775329
4411242000,-0.43921494,0.5979389
4411253000,-0.43895468,0.59815377
4411264000,-0.43868169,0.59829265
4411275000,-0.43844351,0.59851629
4411286000,-0.4381465,0.59867269
4411297000,-0.43792301,0.59888929
4411308000,-0.4376232,0.59904927
4411319000,-0.4373723,0.59924459
4411330000,-0.43709144,0.59941041
4411341000,-0.43682161,0.59961718
4411352000,-0.43657359,0.59980965
4411363000,-0.43631822,0.59998244
4411374000,-0.4360629,0.6001904
4411385000,-0.43581241,0.60037649
4411396000,-0.43552917,0.60053605
4411407000,-0.43526077,0.60072589
4411418000,-0.435009,0.60091126
4411429000,-0.43473396,0.60109991
4411440000,-0.43446821,0.60131514
4411451000,-0.43421507,0.60146439
4411462000,-0.43394437,0.60165405
4411473000,-0.43366519,0.6018191
4411484000,-0.43341842,0.60200959
4411495000,-0.43312827,0.60218728
4411506000,-0.43287086,0.60237867
4411517000,-0.43262434,0.60256171
4411528000,-0.43235356,0.60275227
4411539000,-0.43211302,0.60293311
4411550000,-0.43183702,0.60310447
4411561000,-0.4315536,0.60328388
4411572000,-0.4312872,0.60346282
4411583000,-0.43102598,0.60365611
4411594000,-0.43076199,0.60385323
4411605000,-0.43048412,0.60401678
4411616000,-0.43023974,0.60421294
4411627000,-0.42995483,0.60437793
4411638000,-0.42967826,0.60456342
4411649000,-0.42942557,0.60475999
4411660000,-0.42917529,0.60493225
4411671000,-0.4288711,0.60512125
4411682000,-0.42863593,0.60531467
4411693000,-0.4283877,0.60549551
4411704000,-0.42808709,0.60567433
4411715000,-0.42784041,0.6058265
4411726000,-0.42757028,0.60602248
4411737000,-0.42732039,0.60622317
4411748000,-0.42703405,0.60639113
4411759000,-0.42675251,0.60656226
4411770000,-0.42651564,0.60675997
4411781000,-0.42623678,0.606938
4411792000,-0.42595705,0.60711491
4411803000,-0.42570439,0.60730606
4411814000,-0.42542911,0.60744512
4411825000,-0.42512465,0.60765827
4411836000,-0.42488283,0.6078496
4411847000,-0.42462382,0.60800922
4411858000,-0.42435941,0.60820067
4411869000,-0.42410049,0.60839981
4411880000,-0.42381853,0.60857379
4411891000,-0.42358035,0.60872644
4411902000,-0.42327529,0.60891849
4411913000,-0.4230195,0.6091038
4411924000,-0.42273611,0.60926616
4411935000,-0.42244959,0.60945165
4411946000,-0.42220902,0.60962641
4411957000,-0.4219254,0.60980165
4411968000,-0.42170325,0.61001188
4411979000,-0.42141208,0.61018163
4411990000,-0.42115456,0.61035049
4412001000,-0.42086935,0.61052942
4412012000,-0.42059651,0.61071581
4412023000,-0.42033258,0.61091202
4412034000,-0.42007488,0.61104906
4412045000,-0.41981569,0.61125636
4412056000,-0.41955295,0.61141878
4412067000,-0.41929021,0.61159396
4412078000,-0.41897121,0.61180145
4412089000,-0.41872883,0.61194861
4412100000,-0.41844314,0.61215925
4412111000,-0.41821194,0.61229432
4412122000,-0.41791171,0.61248398
4412133000,-0.41762382,0.61266249
4412144000,-0.41736206,0.61284029
4412155000,-0.4170886,0.61301523
4412166000,-0.41684023,0.61321157
4412177000,-0.41659147,0.61335129
4412188000,-0.41628304,0.61351699
4412199000,-0.41599622,0.61374629
4412210000,-0.41574472,0.61392838
4412221000,-0.41547889,0.61405849
4412232000,-0.41522899,0.61425847
4412243000,-0.41493931,0.61443383
4412254000,-0.4146623,0.61462605
4412265000,-0.414404,0.61478281
4412276000,-0.41411337,0.61494839
